time	V(n001)	I(D1)
0.000000000000000e+00	1.000000e+00	1.876507e-03
4.330102860300268e-11	6.968928e-01	3.666391e-04
8.660205720600536e-11	3.937856e-01	-1.142338e-03
1.299030858090081e-10	9.067839e-02	-2.650424e-03
1.732041144120107e-10	-2.124288e-01	-4.157619e-03
2.165051430150134e-10	-5.155360e-01	-5.663923e-03
2.598061716180161e-10	-8.186432e-01	-7.169337e-03
3.031072002210187e-10	-1.121750e+00	-8.673859e-03
4.002500573638756e-10	-1.801750e+00	-1.205903e-02
4.973929145067326e-10	-2.481750e+00	-1.542709e-02
5.945357716495895e-10	-3.161750e+00	-1.877805e-02
6.916786287924465e-10	-3.841750e+00	-2.211191e-02
7.888214859353035e-10	-4.521751e+00	-2.542866e-02
8.859643430781604e-10	-5.201751e+00	-2.872830e-02
9.831072002210171e-10	-5.881751e+00	-3.201085e-02
9.884260572849396e-10	-5.925923e+00	-3.222108e-02
9.937449143488620e-10	-5.961002e+00	-3.238553e-02
9.990637714127845e-10	-5.986988e+00	-3.250418e-02
1.004382628476707e-09	-6.003880e+00	-3.257704e-02
1.009701485540630e-09	-6.011680e+00	-3.260411e-02
1.015020342604552e-09	-6.010387e+00	-3.258539e-02
1.020339199668474e-09	-6.000000e+00	-3.252088e-02
1.034624913954189e-09	-6.000000e+00	-3.250300e-02
1.048910628239903e-09	-6.000000e+00	-3.246372e-02
1.063196342525617e-09	-6.000000e+00	-3.240302e-02
1.077482056811331e-09	-6.000000e+00	-3.232091e-02
1.091767771097046e-09	-6.000000e+00	-3.221739e-02
1.106053485382760e-09	-6.000000e+00	-3.209246e-02
1.120339199668474e-09	-6.000000e+00	-3.194612e-02
1.130339199668474e-09	-6.000000e+00	-3.169099e-02
1.140339199668474e-09	-6.000000e+00	-3.100573e-02
1.150339199668474e-09	-6.000000e+00	-2.957972e-02
1.160339199668474e-09	-6.000000e+00	-2.784069e-02
1.170339199668474e-09	-6.000000e+00	-2.590062e-02
1.210339199668474e-09	-6.000000e+00	-1.744133e-02
1.220339199668474e-09	-6.000000e+00	-1.544640e-02
1.230339199668474e-09	-6.000000e+00	-1.357948e-02
1.240339199668474e-09	-6.000000e+00	-1.186050e-02
1.250339199668474e-09	-6.000000e+00	-1.029967e-02
1.260339199668474e-09	-6.000000e+00	-8.899279e-03
1.270339199668474e-09	-6.000000e+00	-7.655641e-03
1.280339199668474e-09	-6.000000e+00	-6.560838e-03
1.290339199668474e-09	-6.000000e+00	-5.604231e-03
1.300339199668473e-09	-6.000000e+00	-4.773676e-03
1.310339199668473e-09	-6.000000e+00	-4.056454e-03
1.320339199668473e-09	-6.000000e+00	-3.439936e-03
1.330339199668473e-09	-6.000000e+00	-2.912038e-03
1.340339199668473e-09	-6.000000e+00	-2.461509e-03
1.350339199668473e-09	-6.000000e+00	-2.078076e-03
1.360339199668473e-09	-6.000000e+00	-1.752512e-03
1.370339199668473e-09	-6.000000e+00	-1.476631e-03
1.380339199668473e-09	-6.000000e+00	-1.243240e-03
1.390339199668473e-09	-6.000000e+00	-1.046071e-03
1.400339199668473e-09	-6.000000e+00	-8.797013e-04
1.410339199668473e-09	-6.000000e+00	-7.394581e-04
1.420339199668473e-09	-6.000000e+00	-6.213376e-04
1.430339199668473e-09	-6.000000e+00	-5.219199e-04
1.440339199668473e-09	-6.000000e+00	-4.382929e-04
1.450339199668473e-09	-6.000000e+00	-3.679835e-04
1.460339199668473e-09	-6.000000e+00	-3.088955e-04
1.470339199668473e-09	-6.000000e+00	-2.592552e-04
1.480339199668473e-09	-6.000000e+00	-2.175643e-04
1.490339199668473e-09	-6.000000e+00	-1.825584e-04
1.500339199668473e-09	-6.000000e+00	-1.531716e-04
1.510339199668473e-09	-6.000000e+00	-1.285062e-04
1.520339199668473e-09	-6.000000e+00	-1.078067e-04
1.530339199668473e-09	-6.000000e+00	-9.043748e-05
1.540339199668473e-09	-6.000000e+00	-7.586429e-05
1.550339199668473e-09	-6.000000e+00	-6.363807e-05
1.560339199668473e-09	-6.000000e+00	-5.338158e-05
1.570339199668473e-09	-6.000000e+00	-4.477800e-05
1.580339199668473e-09	-6.000000e+00	-3.756132e-05
1.590339199668472e-09	-6.000000e+00	-3.150823e-05
1.600339199668472e-09	-6.000000e+00	-2.643130e-05
1.610339199668472e-09	-6.000000e+00	-2.217323e-05
1.620339199668472e-09	-6.000000e+00	-1.860203e-05
1.630339199668472e-09	-6.000000e+00	-1.560698e-05
1.640339199668472e-09	-6.000000e+00	-1.309516e-05
1.650339199668472e-09	-6.000000e+00	-1.098863e-05
1.660339199668472e-09	-6.000000e+00	-9.222035e-06
1.670339199668472e-09	-6.000000e+00	-7.740523e-06
1.680339199668472e-09	-6.000000e+00	-6.498100e-06
1.690339199668472e-09	-6.000000e+00	-5.456192e-06
1.700339199668472e-09	-6.000000e+00	-4.582441e-06
1.710339199668472e-09	-6.000000e+00	-3.849713e-06
1.720339199668472e-09	-6.000000e+00	-3.235248e-06
1.730339199668472e-09	-6.000000e+00	-2.719962e-06
1.740339199668472e-09	-6.000000e+00	-2.287846e-06
1.750339199668472e-09	-6.000000e+00	-1.925478e-06
1.760339199668472e-09	-6.000000e+00	-1.621601e-06
1.770339199668472e-09	-6.000000e+00	-1.366773e-06
1.780339199668472e-09	-6.000000e+00	-1.153078e-06
1.790339199668472e-09	-6.000000e+00	-9.738773e-07
1.800339199668472e-09	-6.000000e+00	-8.236021e-07
1.810339199668472e-09	-6.000000e+00	-6.975840e-07
1.820339199668472e-09	-6.000000e+00	-5.919073e-07
1.830339199668472e-09	-6.000000e+00	-5.032888e-07
1.840339199668472e-09	-6.000000e+00	-4.289751e-07
1.850339199668472e-09	-6.000000e+00	-3.666569e-07
1.860339199668472e-09	-6.000000e+00	-3.143981e-07
1.870339199668472e-09	-6.000000e+00	-2.705749e-07
1.880339199668472e-09	-6.000000e+00	-2.338256e-07
1.890339199668472e-09	-6.000000e+00	-2.030084e-07
1.900339199668472e-09	-6.000000e+00	-1.771657e-07
1.910339199668472e-09	-6.000000e+00	-1.554946e-07
1.920339199668472e-09	-6.000000e+00	-1.373216e-07
1.940339199668473e-09	-6.000000e+00	-1.093026e-07
1.960339199668473e-09	-6.000000e+00	-8.959918e-08
1.990339199668474e-09	-6.000000e+00	-7.044393e-08
2.020339199668474e-09	-6.000000e+00	-5.914805e-08
2.044624913954189e-09	-6.000000e+00	-5.449181e-08
2.068910628239903e-09	-6.000000e+00	-5.065333e-08
2.093196342525618e-09	-6.000000e+00	-4.763260e-08
2.117482056811333e-09	-6.000000e+00	-4.542962e-08
2.141767771097048e-09	-6.000000e+00	-4.404439e-08
2.166053485382762e-09	-6.000000e+00	-4.347692e-08
2.190339199668477e-09	-6.000000e+00	-4.372719e-08
1.004033919966835e-08	-6.000000e+00	-4.291305e-08
2.028033919966899e-08	-6.000000e+00	-4.291305e-08
2.100000000000000e-08	-6.000000e+00	-4.291305e-08
2.100096608003309e-08	-5.993237e+00	3.308962e-05
2.100289824009927e-08	-5.979712e+00	9.824939e-05
2.100676256023163e-08	-5.952662e+00	2.221554e-04
2.101449120049635e-08	-5.898561e+00	4.463657e-04
2.102449120049636e-08	-5.828562e+00	6.950786e-04
2.103449120049636e-08	-5.758562e+00	9.039572e-04
2.104449120049636e-08	-5.688561e+00	1.079651e-03
2.105449120049636e-08	-5.618562e+00	1.227728e-03
2.106449120049636e-08	-5.548562e+00	1.352844e-03
2.107449120049636e-08	-5.478561e+00	1.458883e-03
2.108449120049636e-08	-5.408562e+00	1.549084e-03
2.109449120049637e-08	-5.338562e+00	1.626141e-03
2.110449120049637e-08	-5.268561e+00	1.692296e-03
2.112449120049637e-08	-5.128561e+00	1.799035e-03
2.114449120049637e-08	-4.988562e+00	1.880732e-03
2.117449120049638e-08	-4.778562e+00	1.972909e-03
2.119734834335352e-08	-4.618562e+00	2.023190e-03
2.122020548621067e-08	-4.458562e+00	2.070727e-03
2.124306262906782e-08	-4.298562e+00	2.115520e-03
2.126591977192496e-08	-4.138562e+00	2.157568e-03
2.128877691478211e-08	-3.978562e+00	2.196873e-03
2.131163405763925e-08	-3.818562e+00	2.233433e-03
2.133449120049640e-08	-3.658562e+00	2.267250e-03
2.138306262906784e-08	-3.318562e+00	2.343311e-03
2.143163405763927e-08	-2.978562e+00	2.430129e-03
2.148020548621071e-08	-2.638562e+00	2.527704e-03
2.152877691478214e-08	-2.298562e+00	2.636036e-03
2.157734834335358e-08	-1.958562e+00	2.755125e-03
2.162591977192501e-08	-1.618562e+00	2.884971e-03
2.167449120049645e-08	-1.278562e+00	3.025574e-03
2.170734834335360e-08	-1.048562e+00	3.130034e-03
2.174020548621074e-08	-8.185616e-01	3.250183e-03
2.177306262906789e-08	-5.885616e-01	3.386021e-03
2.180591977192504e-08	-3.585616e-01	3.537547e-03
2.183877691478219e-08	-1.285616e-01	3.704762e-03
2.187163405763933e-08	1.014384e-01	3.887666e-03
2.190449120049648e-08	3.314384e-01	4.086259e-03
2.191449120049648e-08	4.014384e-01	4.153911e-03
2.192449120049648e-08	4.714384e-01	4.224229e-03
2.194449120049649e-08	6.114384e-01	4.373499e-03
2.195242102899699e-08	6.669472e-01	4.435714e-03
2.196035085749749e-08	7.224560e-01	4.500396e-03
2.196828068599799e-08	7.779648e-01	4.567545e-03
2.197621051449849e-08	8.334736e-01	4.637161e-03
2.198414034299900e-08	8.889824e-01	4.709244e-03
2.199207017149950e-08	9.444912e-01	4.783793e-03
2.200000000000000e-08	1.000000e+00	4.860809e-03
2.201243961120869e-08	1.000000e+00	4.571471e-03
2.202487922241739e-08	1.000000e+00	4.312971e-03
2.203731883362609e-08	1.000000e+00	4.085309e-03
2.204975844483479e-08	1.000000e+00	3.888487e-03
2.206219805604348e-08	1.000000e+00	3.722502e-03
2.207463766725218e-08	1.000000e+00	3.587357e-03
2.208707727846088e-08	1.000000e+00	3.483050e-03
2.210707727846088e-08	1.000000e+00	3.347088e-03
2.213707727846088e-08	1.000000e+00	3.203522e-03
2.215993442131803e-08	1.000000e+00	3.130749e-03
2.218279156417518e-08	1.000000e+00	3.065891e-03
2.220564870703232e-08	1.000000e+00	3.008947e-03
2.222850584988947e-08	1.000000e+00	2.959918e-03
2.225136299274661e-08	1.000000e+00	2.918803e-03
2.227422013560376e-08	1.000000e+00	2.885603e-03
2.229707727846091e-08	1.000000e+00	2.860318e-03
2.236136299274663e-08	1.000000e+00	2.796918e-03
2.242564870703235e-08	1.000000e+00	2.740486e-03
2.248993442131808e-08	1.000000e+00	2.691023e-03
2.255422013560380e-08	1.000000e+00	2.648528e-03
2.261850584988952e-08	1.000000e+00	2.613002e-03
2.268279156417525e-08	1.000000e+00	2.584444e-03
2.274707727846097e-08	1.000000e+00	2.562855e-03
2.293422013560385e-08	1.000000e+00	2.506203e-03
2.312136299274674e-08	1.000000e+00	2.455835e-03
2.330850584988962e-08	1.000000e+00	2.411750e-03
2.349564870703250e-08	1.000000e+00	2.373948e-03
2.368279156417539e-08	1.000000e+00	2.342430e-03
2.386993442131827e-08	1.000000e+00	2.317196e-03
2.405707727846115e-08	1.000000e+00	2.298245e-03
2.459850584988980e-08	1.000000e+00	2.249140e-03
2.513993442131845e-08	1.000000e+00	2.205785e-03
2.568136299274710e-08	1.000000e+00	2.168179e-03
2.622279156417575e-08	1.000000e+00	2.136322e-03
2.676422013560439e-08	1.000000e+00	2.110214e-03
2.730564870703304e-08	1.000000e+00	2.089856e-03
2.784707727846169e-08	1.000000e+00	2.075247e-03
3.045707727846184e-08	1.000000e+00	2.011985e-03
3.182035195296729e-08	1.000000e+00	1.991168e-03
3.318362662747274e-08	1.000000e+00	1.972862e-03
3.454690130197820e-08	1.000000e+00	1.957066e-03
3.591017597648365e-08	1.000000e+00	1.943782e-03
3.727345065098910e-08	1.000000e+00	1.933008e-03
3.863672532549455e-08	1.000000e+00	1.924744e-03
4.000000000000000e-08	1.000000e+00	1.918992e-03
4.005977330652882e-08	5.815869e-01	-1.653943e-04
4.011954661305763e-08	1.631737e-01	-2.247650e-03
4.017931991958645e-08	-2.552394e-01	-4.327777e-03
4.023909322611526e-08	-6.736526e-01	-6.405773e-03
4.029886653264408e-08	-1.092066e+00	-8.481640e-03
4.035863983917289e-08	-1.510479e+00	-1.055538e-02
4.041841314570171e-08	-1.928892e+00	-1.262698e-02
4.064841314570166e-08	-3.538892e+00	-2.056349e-02
4.069879852460270e-08	-3.892865e+00	-2.232062e-02
4.074918390350373e-08	-4.246042e+00	-2.405042e-02
4.079956928240476e-08	-4.598424e+00	-2.575289e-02
4.084995466130579e-08	-4.950011e+00	-2.742802e-02
4.090034004020683e-08	-5.300803e+00	-2.907582e-02
4.095072541910785e-08	-5.650799e+00	-3.069629e-02
4.100111079800889e-08	-6.000000e+00	-3.228943e-02
4.100809456716190e-08	-6.000000e+00	-3.227520e-02
4.101507833631491e-08	-6.000000e+00	-3.223151e-02
4.102206210546793e-08	-6.000000e+00	-3.215838e-02
4.102904587462093e-08	-6.000000e+00	-3.205579e-02
4.103602964377394e-08	-6.000000e+00	-3.192376e-02
4.104301341292695e-08	-6.000000e+00	-3.176227e-02
4.104999718207997e-08	-6.000000e+00	-3.157133e-02
4.105999718207996e-08	-6.000000e+00	-3.066423e-02
4.106999718207996e-08	-6.000000e+00	-2.914932e-02
4.107999718207996e-08	-6.000000e+00	-2.738018e-02
4.109999718207996e-08	-6.000000e+00	-2.329828e-02
4.111999718207995e-08	-6.000000e+00	-1.901144e-02
4.112999718207995e-08	-6.000000e+00	-1.693998e-02
4.113999718207995e-08	-6.000000e+00	-1.497412e-02
4.114999718207995e-08	-6.000000e+00	-1.314216e-02
4.115999718207994e-08	-6.000000e+00	-1.146150e-02
4.116999718207994e-08	-6.000000e+00	-9.940198e-03
4.117999718207994e-08	-6.000000e+00	-8.578918e-03
4.118999718207994e-08	-6.000000e+00	-7.372771e-03
4.119999718207994e-08	-6.000000e+00	-6.313042e-03
4.120999718207993e-08	-6.000000e+00	-5.388619e-03
4.121999718207993e-08	-6.000000e+00	-4.587143e-03
4.122999718207993e-08	-6.000000e+00	-3.895861e-03
4.123999718207993e-08	-6.000000e+00	-3.302245e-03
4.124999718207993e-08	-6.000000e+00	-2.794397e-03
4.125999718207993e-08	-6.000000e+00	-2.361293e-03
4.126999718207992e-08	-6.000000e+00	-1.992917e-03
4.127999718207992e-08	-6.000000e+00	-1.680301e-03
4.128999718207992e-08	-6.000000e+00	-1.415507e-03
4.129999718207992e-08	-6.000000e+00	-1.191578e-03
4.130999718207992e-08	-6.000000e+00	-1.002462e-03
4.131999718207991e-08	-6.000000e+00	-8.429279e-04
4.132999718207991e-08	-6.000000e+00	-7.084768e-04
4.133999718207991e-08	-6.000000e+00	-5.952556e-04
4.134999718207991e-08	-6.000000e+00	-4.999761e-04
4.135999718207991e-08	-6.000000e+00	-4.198406e-04
4.136999718207990e-08	-6.000000e+00	-3.524740e-04
4.137999718207990e-08	-6.000000e+00	-2.958644e-04
4.138999718207990e-08	-6.000000e+00	-2.483098e-04
4.139999718207990e-08	-6.000000e+00	-2.083732e-04
4.140999718207990e-08	-6.000000e+00	-1.748421e-04
4.141999718207990e-08	-6.000000e+00	-1.466946e-04
4.142999718207989e-08	-6.000000e+00	-1.230704e-04
4.143999718207989e-08	-6.000000e+00	-1.032452e-04
4.144999718207989e-08	-6.000000e+00	-8.661019e-05
4.145999718207989e-08	-6.000000e+00	-7.265328e-05
4.146999718207989e-08	-6.000000e+00	-6.094431e-05
4.147999718207988e-08	-6.000000e+00	-5.112190e-05
4.148999718207988e-08	-6.000000e+00	-4.288255e-05
4.149999718207988e-08	-6.000000e+00	-3.597146e-05
4.150999718207988e-08	-6.000000e+00	-3.017475e-05
4.151999718207988e-08	-6.000000e+00	-2.531288e-05
4.152999718207987e-08	-6.000000e+00	-2.123522e-05
4.153999718207987e-08	-6.000000e+00	-1.781534e-05
4.154999718207987e-08	-6.000000e+00	-1.494721e-05
4.155999718207987e-08	-6.000000e+00	-1.254185e-05
4.156999718207987e-08	-6.000000e+00	-1.052461e-05
4.157999718207986e-08	-6.000000e+00	-8.832891e-06
4.158999718207986e-08	-6.000000e+00	-7.414178e-06
4.159999718207986e-08	-6.000000e+00	-6.224423e-06
4.160999718207986e-08	-6.000000e+00	-5.226685e-06
4.161999718207986e-08	-6.000000e+00	-4.389976e-06
4.162999718207986e-08	-6.000000e+00	-3.688311e-06
4.163999718207985e-08	-6.000000e+00	-3.099898e-06
4.164999718207985e-08	-6.000000e+00	-2.606457e-06
4.165999718207985e-08	-6.000000e+00	-2.192663e-06
4.166999718207985e-08	-6.000000e+00	-1.845658e-06
4.167999718207985e-08	-6.000000e+00	-1.554665e-06
4.168999718207984e-08	-6.000000e+00	-1.310642e-06
4.169999718207984e-08	-6.000000e+00	-1.106007e-06
4.170999718207984e-08	-6.000000e+00	-9.344042e-07
4.171999718207984e-08	-6.000000e+00	-7.905007e-07
4.172999718207984e-08	-6.000000e+00	-6.698257e-07
4.173999718207983e-08	-6.000000e+00	-5.686297e-07
4.174999718207983e-08	-6.000000e+00	-4.837687e-07
4.175999718207983e-08	-6.000000e+00	-4.126058e-07
4.176999718207983e-08	-6.000000e+00	-3.529300e-07
4.177999718207983e-08	-6.000000e+00	-3.028870e-07
4.178999718207982e-08	-6.000000e+00	-2.609219e-07
4.179999718207982e-08	-6.000000e+00	-2.257308e-07
4.180999718207982e-08	-6.000000e+00	-1.962203e-07
4.181999718207982e-08	-6.000000e+00	-1.714733e-07
4.182999718207982e-08	-6.000000e+00	-1.507211e-07
4.183999718207982e-08	-6.000000e+00	-1.333186e-07
4.185999718207981e-08	-6.000000e+00	-1.064876e-07
4.187999718207981e-08	-6.000000e+00	-8.761965e-08
4.190999718207980e-08	-6.000000e+00	-6.927660e-08
4.193999718207980e-08	-6.000000e+00	-5.845967e-08
4.196571146779408e-08	-6.000000e+00	-5.386077e-08
4.199142575350836e-08	-6.000000e+00	-5.008565e-08
4.201714003922264e-08	-6.000000e+00	-4.713431e-08
4.204285432493692e-08	-6.000000e+00	-4.500676e-08
4.206856861065120e-08	-6.000000e+00	-4.370300e-08
4.209428289636548e-08	-6.000000e+00	-4.322302e-08
4.211999718207976e-08	-6.000000e+00	-4.356683e-08
5.082999718207811e-08	-6.000000e+00	-4.291305e-08
6.100000000000000e-08	-6.000000e+00	-4.291305e-08
6.100035505840135e-08	-5.997515e+00	1.230216e-05
6.100071575265035e-08	-5.994990e+00	2.476466e-05
6.100143714114833e-08	-5.989940e+00	4.945437e-05
6.100287991814429e-08	-5.979841e+00	9.790733e-05
6.100576547213622e-08	-5.959642e+00	1.912222e-04
6.101153658012008e-08	-5.919244e+00	3.643594e-04
6.102153658012008e-08	-5.849244e+00	6.262569e-04
6.103153658012008e-08	-5.779244e+00	8.461296e-04
6.104153658012008e-08	-5.709244e+00	1.030977e-03
6.105153658012007e-08	-5.639244e+00	1.186671e-03
6.106153658012007e-08	-5.569244e+00	1.318116e-03
6.107153658012007e-08	-5.499244e+00	1.429413e-03
6.108153658012007e-08	-5.429244e+00	1.523978e-03
6.109153658012007e-08	-5.359244e+00	1.604656e-03
6.110153658012007e-08	-5.289244e+00	1.673813e-03
6.112153658012006e-08	-5.149244e+00	1.785104e-03
6.114153658012006e-08	-5.009244e+00	1.869924e-03
6.117153658012005e-08	-4.799244e+00	1.965030e-03
6.119439372297718e-08	-4.639244e+00	2.016396e-03
6.121725086583433e-08	-4.479244e+00	2.064802e-03
6.124010800869146e-08	-4.319244e+00	2.110248e-03
6.126296515154861e-08	-4.159244e+00	2.152734e-03
6.128582229440574e-08	-3.999244e+00	2.192260e-03
6.130867943726289e-08	-3.839244e+00	2.228826e-03
6.133153658012002e-08	-3.679244e+00	2.262432e-03
6.138010800869144e-08	-3.339244e+00	2.338237e-03
6.142867943726287e-08	-2.999244e+00	2.424665e-03
6.147725086583428e-08	-2.659244e+00	2.521716e-03
6.152582229440570e-08	-2.319244e+00	2.629390e-03
6.157439372297711e-08	-1.979244e+00	2.747687e-03
6.162296515154854e-08	-1.639244e+00	2.876606e-03
6.167153658011996e-08	-1.299244e+00	3.016148e-03
6.170439372297709e-08	-1.069244e+00	3.119830e-03
6.173725086583423e-08	-8.392439e-01	3.238980e-03
6.177010800869136e-08	-6.092439e-01	3.373599e-03
6.180296515154851e-08	-3.792440e-01	3.523686e-03
6.183582229440564e-08	-1.492440e-01	3.689242e-03
6.186867943726278e-08	8.075605e-02	3.870266e-03
6.190153658011991e-08	3.107561e-01	4.066759e-03
6.191153658011991e-08	3.807561e-01	4.133651e-03
6.192153658011991e-08	4.507561e-01	4.203166e-03
6.194153658011991e-08	5.907561e-01	4.350684e-03
6.197153658011990e-08	8.007560e-01	4.595908e-03
6.200000000000000e-08	1.000000e+00	4.860805e-03
6.201324216140287e-08	1.000000e+00	4.554917e-03
6.202648432280575e-08	1.000000e+00	4.283358e-03
6.203972648420862e-08	1.000000e+00	4.046129e-03
6.205296864561151e-08	1.000000e+00	3.843229e-03
6.206621080701439e-08	1.000000e+00	3.674658e-03
6.207945296841726e-08	1.000000e+00	3.540417e-03
6.209269512982014e-08	1.000000e+00	3.440505e-03
6.211269512982013e-08	1.000000e+00	3.315667e-03
6.214269512982013e-08	1.000000e+00	3.182071e-03
6.216698084410584e-08	1.000000e+00	3.109747e-03
6.219126655839154e-08	1.000000e+00	3.045314e-03
6.221555227267725e-08	1.000000e+00	2.988773e-03
6.223983798696297e-08	1.000000e+00	2.940122e-03
6.226412370124868e-08	1.000000e+00	2.899363e-03
6.228840941553439e-08	1.000000e+00	2.866494e-03
6.231269512982010e-08	1.000000e+00	2.841517e-03
6.238126655839151e-08	1.000000e+00	2.778508e-03
6.244983798696293e-08	1.000000e+00	2.722428e-03
6.251840941553435e-08	1.000000e+00	2.673278e-03
6.258698084410576e-08	1.000000e+00	2.631057e-03
6.265555227267717e-08	1.000000e+00	2.595765e-03
6.272412370124859e-08	1.000000e+00	2.567402e-03
6.279269512982001e-08	1.000000e+00	2.545969e-03
6.299269512981997e-08	1.000000e+00	2.489628e-03
6.319269512981993e-08	1.000000e+00	2.439550e-03
6.339269512981989e-08	1.000000e+00	2.395736e-03
6.359269512981985e-08	1.000000e+00	2.358184e-03
6.379269512981982e-08	1.000000e+00	2.326895e-03
